
**** 07/01/15 14:40:49 ****** PSpice 16.5.0 (April 2011) ****** ID# 0 ********

 ** Profile: "SCHEMATIC1-test1"  [ C:\USERS\ZIM\DESKTOP\SMART CHARGER\Simulation\lm358 test-PSpiceFiles\SCHEMATIC1\test1.sim ] 


 ****     CIRCUIT DESCRIPTION


******************************************************************************




** Creating circuit file "test1.cir" 
** WARNING: THIS AUTOMATICALLY GENERATED FILE MAY BE OVERWRITTEN BY SUBSEQUENT SIMULATIONS

*Libraries: 
* Profile Libraries :
* Local Libraries :
* From [PSPICE NETLIST] section of C:\Cadence\SPB_16.5\tools\PSpice\PSpice.ini file:
.lib "nom.lib" 

*Analysis directives: 
.TRAN  0 1.3ms 0 1us 
.PROBE V(alias(*)) I(alias(*)) W(alias(*)) D(alias(*)) NOISE(alias(*)) 
.INC "..\SCHEMATIC1.net" 



**** INCLUDING SCHEMATIC1.net ****
* source LM358 TEST
X_U1A         N01919 N00302 VDD 0 N00261 LM358
V_V1         VDD 0 5.4Vdc
V_V2         N01919 0  
+SIN 0 30m 5k 0 0 0
R_R1         N00302 N00261  680k TC=0,0 
R_R2         0 N00302  6.8k TC=0,0 
X_U1B         N00261 N00261 VDD 0 N00920 LM358
R_R3         0 N00261  22k TC=0,0 
R_R4         N00261 VDD  100k TC=0,0 
R_R5         0 N00920  10k TC=0,0 

**** RESUMING test1.cir ****
.END

**** 07/01/15 14:40:49 ****** PSpice 16.5.0 (April 2011) ****** ID# 0 ********

 ** Profile: "SCHEMATIC1-test1"  [ C:\USERS\ZIM\DESKTOP\SMART CHARGER\Simulation\lm358 test-PSpiceFiles\SCHEMATIC1\test1.sim ] 


 ****     Diode MODEL PARAMETERS


******************************************************************************




               X_U1A.x_lm358.dx 
          IS  800.000000E-18 
          RS    1            


               X_U1A.x_lm358.dy 
          IS  800.000000E-18 
          RS    1.000000E-03 
         CJO   10.000000E-12 


               X_U1B.x_lm358.dx 
          IS  800.000000E-18 
          RS    1            


               X_U1B.x_lm358.dy 
          IS  800.000000E-18 
          RS    1.000000E-03 
         CJO   10.000000E-12 


**** 07/01/15 14:40:49 ****** PSpice 16.5.0 (April 2011) ****** ID# 0 ********

 ** Profile: "SCHEMATIC1-test1"  [ C:\USERS\ZIM\DESKTOP\SMART CHARGER\Simulation\lm358 test-PSpiceFiles\SCHEMATIC1\test1.sim ] 


 ****     BJT MODEL PARAMETERS


******************************************************************************




               X_U1A.x_lm358.qx 
               PNP             
       LEVEL    1            
          IS  800.000000E-18 
          BF  166.7          
          NF    1            
          BR    1            
          NR    1            
         ISS    0            
          RE    0            
          RC    0            
         CJE    0            
         VJE     .75         
         CJC    0            
         VJC     .75         
         MJC     .33         
        XCJC    1            
         CJS    0            
         VJS     .75         
          KF    0            
          AF    1            
          CN    2.2          
           D     .52         


               X_U1B.x_lm358.qx 
               PNP             
       LEVEL    1            
          IS  800.000000E-18 
          BF  166.7          
          NF    1            
          BR    1            
          NR    1            
         ISS    0            
          RE    0            
          RC    0            
         CJE    0            
         VJE     .75         
         CJC    0            
         VJC     .75         
         MJC     .33         
        XCJC    1            
         CJS    0            
         VJS     .75         
          KF    0            
          AF    1            
          CN    2.2          
           D     .52         


**** 07/01/15 14:40:49 ****** PSpice 16.5.0 (April 2011) ****** ID# 0 ********

 ** Profile: "SCHEMATIC1-test1"  [ C:\USERS\ZIM\DESKTOP\SMART CHARGER\Simulation\lm358 test-PSpiceFiles\SCHEMATIC1\test1.sim ] 


 ****     Current Controlled Switch MODEL PARAMETERS


******************************************************************************




               X_U1A.x_lm358.sw2 
         RON    1            
        ROFF   10.000000E+06 
         ION    0            
        IOFF   -1.000000E-06 


               X_U1A.x_lm358.sw1 
         RON    1            
        ROFF   10.000000E+06 
         ION   -1.000000E-06 
        IOFF    0            


               X_U1A.x_lm358.sw3 
         RON    1            
        ROFF   10.000000E+06 
         ION   -1.000000E-06 
        IOFF    0            


               X_U1A.x_lm358.sw4 
         RON    1            
        ROFF   10.000000E+06 
         ION    0            
        IOFF   -1.000000E-06 


               X_U1B.x_lm358.sw2 
         RON    1            
        ROFF   10.000000E+06 
         ION    0            
        IOFF   -1.000000E-06 


               X_U1B.x_lm358.sw1 
         RON    1            
        ROFF   10.000000E+06 
         ION   -1.000000E-06 
        IOFF    0            


               X_U1B.x_lm358.sw3 
         RON    1            
        ROFF   10.000000E+06 
         ION   -1.000000E-06 
        IOFF    0            


               X_U1B.x_lm358.sw4 
         RON    1            
        ROFF   10.000000E+06 
         ION    0            
        IOFF   -1.000000E-06 


**** 07/01/15 14:40:49 ****** PSpice 16.5.0 (April 2011) ****** ID# 0 ********

 ** Profile: "SCHEMATIC1-test1"  [ C:\USERS\ZIM\DESKTOP\SMART CHARGER\Simulation\lm358 test-PSpiceFiles\SCHEMATIC1\test1.sim ] 


 ****     INITIAL TRANSIENT SOLUTION       TEMPERATURE =   27.000 DEG C


******************************************************************************



 NODE   VOLTAGE     NODE   VOLTAGE     NODE   VOLTAGE     NODE   VOLTAGE


(  VDD)    5.4000  (N00261)     .0854 (N00302)     .0011 (N00920)    4.6436     

(N01919)    0.0000 (X_U1A.x_lm358.6)     .0093                                  

(X_U1A.x_lm358.7)    -.0103           (X_U1A.x_lm358.8)    -.0103               

(X_U1A.x_lm358.9)    0.0000           (X_U1A.x_lm358.a)     .0019               

(X_U1A.x_lm358.b)     .0019           (X_U1B.x_lm358.6)    -.0120               

(X_U1B.x_lm358.7)    4.7894           (X_U1B.x_lm358.8)    4.7894               

(X_U1B.x_lm358.9)    0.0000           (X_U1B.x_lm358.a)    5.3971               

(X_U1B.x_lm358.b)    -.0029           (X_U1A.x_lm358.10)     .6088              

(X_U1A.x_lm358.11)     .0396          (X_U1A.x_lm358.12)     .0408              

(X_U1A.x_lm358.13)     .5949          (X_U1A.x_lm358.14)     .5945              

(X_U1A.x_lm358.53)    3.9000          (X_U1A.x_lm358.54)     .8220              

(X_U1A.x_lm358.90)   -1.9152          (X_U1A.x_lm358.91)   40.0000              

(X_U1A.x_lm358.92)  -40.0000          (X_U1A.x_lm358.99)    2.7000              

(X_U1B.x_lm358.10)     .6936          (X_U1B.x_lm358.11)     .0402              

(X_U1B.x_lm358.12)     .0402          (X_U1B.x_lm358.13)     .6796              

(X_U1B.x_lm358.14)     .6796          (X_U1B.x_lm358.53)    3.9000              

(X_U1B.x_lm358.54)     .8220          (X_U1B.x_lm358.90)    2.9157              

(X_U1B.x_lm358.91)   40.0000          (X_U1B.x_lm358.92)  -40.0000              

(X_U1B.x_lm358.99)    2.7000          




    VOLTAGE SOURCE CURRENTS
    NAME         CURRENT

    V_V1        -1.738E-03
    V_V2         4.612E-08
    X_U1A.x_lm358.vb   9.314E-08
    X_U1A.x_lm358.vc   3.815E-12
    X_U1A.x_lm358.ve  -1.866E-03
    X_U1A.x_lm358.vlim  -1.915E-03
    X_U1A.x_lm358.vlp  -4.192E-11
    X_U1A.x_lm358.vln  -3.809E-11
    X_U1B.x_lm358.vb  -1.196E-07
    X_U1B.x_lm358.vc  -2.451E-03
    X_U1B.x_lm358.ve   3.734E-12
    X_U1B.x_lm358.vlim   2.916E-03
    X_U1B.x_lm358.vlp  -3.709E-11
    X_U1B.x_lm358.vln  -4.292E-11

    TOTAL POWER DISSIPATION   1.46E-02  WATTS



          JOB CONCLUDED

**** 07/01/15 14:40:49 ****** PSpice 16.5.0 (April 2011) ****** ID# 0 ********

 ** Profile: "SCHEMATIC1-test1"  [ C:\USERS\ZIM\DESKTOP\SMART CHARGER\Simulation\lm358 test-PSpiceFiles\SCHEMATIC1\test1.sim ] 


 ****     JOB STATISTICS SUMMARY


******************************************************************************



  Total job time (using Solver 1)   =         .31
